Sample in Buffer,Sample in Window,TRIGGER,shreg_out[7:0],rand_num[7:0],enable_1
Radix - UNSIGNED,UNSIGNED,UNSIGNED,HEX,UNSIGNED,HEX
0,0,0,51,213,1
1,1,0,a2,213,1
2,2,0,44,213,1
3,3,0,89,213,1
4,4,0,13,213,1
5,5,0,26,19,1
6,6,0,4d,19,1
7,7,0,9b,19,1
8,8,0,36,19,1
9,9,0,6d,19,1
10,10,0,db,19,1
11,11,0,b7,19,1
12,12,0,6e,19,1
13,13,0,dd,110,1
14,14,0,ba,110,1
15,15,0,75,110,1
16,16,0,ea,110,1
17,17,0,d5,110,1
18,18,0,aa,110,1
19,19,0,54,110,1
20,20,0,a8,110,1
21,21,0,51,168,1
22,22,0,a2,168,1
23,23,0,45,168,1
24,24,0,8b,168,1
25,25,0,16,168,1
26,26,0,2c,168,1
27,27,0,59,168,1
28,28,0,b3,168,1
29,29,0,66,179,1
30,30,0,cd,179,1
31,31,0,9b,179,1
32,32,0,37,179,1
33,33,0,6e,179,1
34,34,0,dd,179,1
35,35,0,ba,179,1
36,36,0,74,179,1
37,37,0,e8,116,1
38,38,0,d1,116,1
39,39,0,a2,116,1
40,40,0,45,116,1
41,41,0,8a,116,1
42,42,0,15,116,1
43,43,0,2a,116,1
44,44,0,55,116,1
45,45,0,ab,85,1
46,46,0,56,85,1
47,47,0,ac,85,1
48,48,0,59,85,1
49,49,0,b3,85,1
50,50,0,66,85,1
51,51,0,cd,85,1
52,52,0,9b,85,1
53,53,0,36,155,1
54,54,0,6c,155,1
55,55,0,d9,155,1
56,56,0,b2,155,1
57,57,0,64,155,1
58,58,0,c8,155,1
59,59,0,91,155,1
60,60,0,22,155,1
61,61,0,45,34,1
62,62,0,8a,34,1
63,63,0,15,34,1
64,64,0,2a,34,1
65,65,0,55,34,1
66,66,0,ab,34,1
67,67,0,56,34,1
68,68,0,ac,34,1
69,69,0,59,172,1
70,70,0,b2,172,1
71,71,0,64,172,1
72,72,0,c9,172,1
73,73,0,93,172,1
74,74,0,26,172,1
75,75,0,4c,172,1
76,76,0,99,172,1
77,77,0,32,153,1
78,78,0,64,153,1
79,79,0,c8,153,1
80,80,0,91,153,1
81,81,0,22,153,1
82,82,0,45,153,1
83,83,0,8a,153,1
84,84,0,15,153,1
85,85,0,2a,21,1
86,86,0,55,21,1
87,87,0,aa,21,1
88,88,0,54,21,1
89,89,0,a8,21,1
90,90,0,51,21,1
91,91,0,a2,21,1
92,92,0,44,21,1
93,93,0,89,68,1
94,94,0,13,68,1
95,95,0,26,68,1
96,96,0,4c,68,1
97,97,0,99,68,1
98,98,0,32,68,1
99,99,0,65,68,1
100,100,0,cb,68,1
101,101,0,97,203,1
102,102,0,2e,203,1
103,103,0,5d,203,1
104,104,0,ba,203,1
105,105,0,75,203,1
106,106,0,ea,203,1
107,107,0,d5,203,1
108,108,0,aa,203,1
109,109,0,54,170,1
110,110,0,a8,170,1
111,111,0,51,170,1
112,112,0,a2,170,1
113,113,0,45,170,1
114,114,0,8b,170,1
115,115,0,16,170,1
116,116,0,2c,170,1
117,117,0,59,44,1
118,118,0,b3,44,1
119,119,0,66,44,1
120,120,0,cd,44,1
121,121,0,9b,44,1
122,122,0,37,44,1
123,123,0,6e,44,1
124,124,0,dd,44,1
125,125,0,ba,221,1
126,126,0,74,221,1
127,127,0,e8,221,1
128,128,0,d1,221,1
129,129,0,a2,221,1
130,130,0,45,221,1
131,131,0,8b,221,1
132,132,0,17,221,1
133,133,0,2e,23,1
134,134,0,5d,23,1
135,135,0,bb,23,1
136,136,0,76,23,1
137,137,0,ec,23,1
138,138,0,d9,23,1
139,139,0,b3,23,1
140,140,0,66,23,1
141,141,0,cd,102,1
142,142,0,9b,102,1
143,143,0,36,102,1
144,144,0,6c,102,1
145,145,0,d9,102,1
146,146,0,b2,102,1
147,147,0,64,102,1
148,148,0,c8,102,1
149,149,0,91,200,1
150,150,0,22,200,1
151,151,0,45,200,1
152,152,0,8b,200,1
153,153,0,17,200,1
154,154,0,2e,200,1
155,155,0,5d,200,1
156,156,0,bb,200,1
157,157,0,76,187,1
158,158,0,ec,187,1
159,159,0,d9,187,1
160,160,0,b3,187,1
161,161,0,66,187,1
162,162,0,cd,187,1
163,163,0,9b,187,1
164,164,0,37,187,1
165,165,0,6e,55,1
166,166,0,dd,55,1
167,167,0,ba,55,1
168,168,0,74,55,1
169,169,0,e8,55,1
170,170,0,d1,55,1
171,171,0,a2,55,1
172,172,0,45,55,1
173,173,0,8b,69,1
174,174,0,17,69,1
175,175,0,2e,69,1
176,176,0,5d,69,1
177,177,0,ba,69,1
178,178,0,74,69,1
179,179,0,e8,69,1
180,180,0,d1,69,1
181,181,0,a2,209,1
182,182,0,44,209,1
183,183,0,89,209,1
184,184,0,12,209,1
185,185,0,24,209,1
186,186,0,48,209,1
187,187,0,91,209,1
188,188,0,22,209,1
189,189,0,45,34,1
190,190,0,8b,34,1
191,191,0,17,34,1
192,192,0,2e,34,1
193,193,0,5d,34,1
194,194,0,ba,34,1
195,195,0,75,34,1
196,196,0,ea,34,1
197,197,0,d5,234,1
198,198,0,aa,234,1
199,199,0,54,234,1
200,200,0,a8,234,1
201,201,0,51,234,1
202,202,0,a2,234,1
203,203,0,44,234,1
204,204,0,89,234,1
205,205,0,12,137,1
206,206,0,24,137,1
207,207,0,49,137,1
208,208,0,93,137,1
209,209,0,26,137,1
210,210,0,4d,137,1
211,211,0,9b,137,1
212,212,0,37,137,1
213,213,0,6e,55,1
214,214,0,dd,55,1
215,215,0,ba,55,1
216,216,0,75,55,1
217,217,0,ea,55,1
218,218,0,d5,55,1
219,219,0,aa,55,1
220,220,0,54,55,1
221,221,0,a9,84,1
222,222,0,53,84,1
223,223,0,a6,84,1
224,224,0,4d,84,1
225,225,0,9b,84,1
226,226,0,36,84,1
227,227,0,6c,84,1
228,228,0,d9,84,1
229,229,0,b3,217,1
230,230,0,66,217,1
231,231,0,cd,217,1
232,232,0,9b,217,1
233,233,0,37,217,1
234,234,0,6e,217,1
235,235,0,dd,217,1
236,236,0,ba,217,1
237,237,0,75,186,1
238,238,0,ea,186,1
239,239,0,d5,186,1
240,240,0,aa,186,1
241,241,0,55,186,1
242,242,0,ab,186,1
243,243,0,57,186,1
244,244,0,ae,186,1
245,245,0,5d,174,1
246,246,0,bb,174,1
247,247,0,76,174,1
248,248,0,ec,174,1
249,249,0,d9,174,1
250,250,0,b3,174,1
251,251,0,66,174,1
252,252,0,cd,174,1
253,253,0,9b,205,1
254,254,0,36,205,1
255,255,0,6c,205,1
256,256,0,d9,205,1
257,257,0,b2,205,1
258,258,0,65,205,1
259,259,0,ca,205,1
260,260,0,95,205,1
261,261,0,2a,149,1
262,262,0,55,149,1
263,263,0,ab,149,1
264,264,0,57,149,1
265,265,0,ae,149,1
266,266,0,5d,149,1
267,267,0,bb,149,1
268,268,0,76,149,1
269,269,0,ec,118,1
270,270,0,d9,118,1
271,271,0,b2,118,1
272,272,0,64,118,1
273,273,0,c9,118,1
274,274,0,93,118,1
275,275,0,26,118,1
276,276,0,4c,118,1
277,277,0,99,76,1
278,278,0,32,76,1
279,279,0,65,76,1
280,280,0,ca,76,1
281,281,0,95,76,1
282,282,0,2a,76,1
283,283,0,55,76,1
284,284,0,ab,76,1
285,285,0,57,171,1
286,286,0,ae,171,1
287,287,0,5d,171,1
288,288,0,ba,171,1
289,289,0,74,171,1
290,290,0,e9,171,1
291,291,0,d3,171,1
292,292,0,a6,171,1
293,293,0,4c,166,1
294,294,0,99,166,1
295,295,0,32,166,1
296,296,0,64,166,1
297,297,0,c8,166,1
298,298,0,91,166,1
299,299,0,22,166,1
300,300,0,45,166,1
301,301,0,8b,69,1
302,302,0,17,69,1
303,303,0,2e,69,1
304,304,0,5d,69,1
305,305,0,ba,69,1
306,306,0,75,69,1
307,307,0,ea,69,1
308,308,0,d5,69,1
309,309,0,aa,213,1
310,310,0,54,213,1
311,311,0,a9,213,1
312,312,0,53,213,1
313,313,0,a6,213,1
314,314,0,4d,213,1
315,315,0,9b,213,1
316,316,0,36,213,1
317,317,0,6c,54,1
318,318,0,d9,54,1
319,319,0,b3,54,1
320,320,0,66,54,1
321,321,0,cd,54,1
322,322,0,9b,54,1
323,323,0,37,54,1
324,324,0,6e,54,1
325,325,0,dd,110,1
326,326,0,ba,110,1
327,327,0,74,110,1
328,328,0,e8,110,1
329,329,0,d1,110,1
330,330,0,a2,110,1
331,331,0,45,110,1
332,332,0,8b,110,1
333,333,0,17,139,1
334,334,0,2e,139,1
335,335,0,5d,139,1
336,336,0,bb,139,1
337,337,0,76,139,1
338,338,0,ec,139,1
339,339,0,d9,139,1
340,340,0,b3,139,1
341,341,0,66,179,1
342,342,0,cd,179,1
343,343,0,9a,179,1
344,344,0,34,179,1
345,345,0,68,179,1
346,346,0,d1,179,1
347,347,0,a2,179,1
348,348,0,45,179,1
349,349,0,8a,69,1
350,350,0,15,69,1
351,351,0,2a,69,1
352,352,0,55,69,1
353,353,0,ab,69,1
354,354,0,57,69,1
355,355,0,ae,69,1
356,356,0,5d,69,1
357,357,0,bb,93,1
358,358,0,76,93,1
359,359,0,ec,93,1
360,360,0,d9,93,1
361,361,0,b2,93,1
362,362,0,64,93,1
363,363,0,c9,93,1
364,364,0,92,93,1
365,365,0,24,146,1
366,366,0,48,146,1
367,367,0,91,146,1
368,368,0,22,146,1
369,369,0,45,146,1
370,370,0,8a,146,1
371,371,0,15,146,1
372,372,0,2a,146,1
373,373,0,55,42,1
374,374,0,ab,42,1
375,375,0,57,42,1
376,376,0,ae,42,1
377,377,0,5d,42,1
378,378,0,bb,42,1
379,379,0,76,42,1
380,380,0,ec,42,1
381,381,0,d9,236,1
382,382,0,b2,236,1
383,383,0,64,236,1
384,384,0,c9,236,1
385,385,0,92,236,1
386,386,0,24,236,1
387,387,0,48,236,1
388,388,0,91,236,1
389,389,0,22,145,1
390,390,0,45,145,1
391,391,0,8a,145,1
392,392,0,15,145,1
393,393,0,2a,145,1
394,394,0,55,145,1
395,395,0,aa,145,1
396,396,0,54,145,1
397,397,0,a8,84,1
398,398,0,51,84,1
399,399,0,a2,84,1
400,400,0,44,84,1
401,401,0,89,84,1
402,402,0,13,84,1
403,403,0,26,84,1
404,404,0,4c,84,1
405,405,0,99,76,1
406,406,0,32,76,1
407,407,0,64,76,1
408,408,0,c9,76,1
409,409,0,93,76,1
410,410,0,26,76,1
411,411,0,4d,76,1
412,412,0,9a,76,1
413,413,0,35,154,1
414,414,0,6a,154,1
415,415,0,d5,154,1
416,416,0,aa,154,1
417,417,0,54,154,1
418,418,0,a8,154,1
419,419,0,51,154,1
420,420,0,a2,154,1
421,421,0,45,162,1
422,422,0,8b,162,1
423,423,0,17,162,1
424,424,0,2e,162,1
425,425,0,5d,162,1
426,426,0,bb,162,1
427,427,0,76,162,1
428,428,0,ed,162,1
429,429,0,db,237,1
430,430,0,b7,237,1
431,431,0,6e,237,1
432,432,0,dd,237,1
433,433,0,ba,237,1
434,434,0,75,237,1
435,435,0,ea,237,1
436,436,0,d5,237,1
437,437,0,aa,213,1
438,438,0,55,213,1
439,439,0,aa,213,1
440,440,0,55,213,1
441,441,0,aa,213,1
442,442,0,55,213,1
443,443,0,ab,213,1
444,444,0,56,213,1
445,445,0,ac,86,1
446,446,0,59,86,1
447,447,0,b3,86,1
448,448,0,66,86,1
449,449,0,cd,86,1
450,450,0,9b,86,1
451,451,0,36,86,1
452,452,0,6c,86,1
453,453,0,d9,108,1
454,454,0,b2,108,1
455,455,0,64,108,1
456,456,0,c8,108,1
457,457,0,91,108,1
458,458,0,22,108,1
459,459,0,45,108,1
460,460,0,8a,108,1
461,461,0,15,138,1
462,462,0,2a,138,1
463,463,0,55,138,1
464,464,0,ab,138,1
465,465,0,56,138,1
466,466,0,ac,138,1
467,467,0,59,138,1
468,468,0,b2,138,1
469,469,0,64,178,1
470,470,0,c9,178,1
471,471,0,93,178,1
472,472,0,26,178,1
473,473,0,4c,178,1
474,474,0,99,178,1
475,475,0,32,178,1
476,476,0,64,178,1
477,477,0,c8,100,1
478,478,0,91,100,1
479,479,0,22,100,1
480,480,0,45,100,1
481,481,0,8b,100,1
482,482,0,17,100,1
483,483,0,2e,100,1
484,484,0,5d,100,1
485,485,0,ba,93,1
486,486,0,74,93,1
487,487,0,e8,93,1
488,488,0,d1,93,1
489,489,0,a2,93,1
490,490,0,44,93,1
491,491,0,89,93,1
492,492,0,13,93,1
493,493,0,26,19,1
494,494,0,4c,19,1
495,495,0,99,19,1
496,496,0,32,19,1
497,497,0,65,19,1
498,498,0,cb,19,1
499,499,0,97,19,1
500,500,0,2e,19,1
501,501,0,5d,46,1
502,502,0,ba,46,1
503,503,0,75,46,1
504,504,0,ea,46,1
505,505,0,d5,46,1
506,506,0,aa,46,1
507,507,0,54,46,1
508,508,0,a8,46,1
509,509,0,51,168,1
510,510,0,a2,168,1
511,511,0,44,168,1
512,512,0,89,168,1
513,513,0,12,168,1
514,514,0,24,168,1
515,515,0,49,168,1
516,516,0,93,168,1
517,517,0,26,147,1
518,518,0,4d,147,1
519,519,0,9b,147,1
520,520,0,37,147,1
521,521,0,6e,147,1
522,522,0,dd,147,1
523,523,0,ba,147,1
524,524,0,75,147,1
525,525,0,ea,117,1
526,526,0,d5,117,1
527,527,0,aa,117,1
528,528,0,55,117,1
529,529,0,ab,117,1
530,530,0,57,117,1
531,531,0,ae,117,1
532,532,0,5d,117,1
533,533,0,bb,93,1
534,534,0,76,93,1
535,535,0,ec,93,1
536,536,0,d9,93,1
537,537,0,b3,93,1
538,538,0,66,93,1
539,539,0,cd,93,1
540,540,0,9b,93,1
541,541,0,36,155,1
542,542,0,6c,155,1
543,543,0,d9,155,1
544,544,0,b2,155,1
545,545,0,65,155,1
546,546,0,ca,155,1
547,547,0,95,155,1
548,548,0,2a,155,1
549,549,0,55,42,1
550,550,0,ab,42,1
551,551,0,57,42,1
552,552,0,ae,42,1
553,553,0,5d,42,1
554,554,0,bb,42,1
555,555,0,76,42,1
556,556,0,ec,42,1
557,557,0,d9,236,1
558,558,0,b2,236,1
559,559,0,64,236,1
560,560,0,c9,236,1
561,561,0,92,236,1
562,562,0,24,236,1
563,563,0,48,236,1
564,564,0,91,236,1
565,565,0,22,145,1
566,566,0,45,145,1
567,567,0,8a,145,1
568,568,0,15,145,1
569,569,0,2a,145,1
570,570,0,55,145,1
571,571,0,aa,145,1
572,572,0,55,145,1
573,573,0,aa,85,1
574,574,0,55,85,1
575,575,0,aa,85,1
576,576,0,54,85,1
577,577,0,a9,85,1
578,578,0,53,85,1
579,579,0,a6,85,1
580,580,0,4c,85,1
581,581,0,99,76,1
582,582,0,32,76,1
583,583,0,64,76,1
584,584,0,c8,76,1
585,585,0,91,76,1
586,586,0,22,76,1
587,587,0,45,76,1
588,588,0,8b,76,1
589,589,0,17,139,1
590,590,0,2e,139,1
591,591,0,5d,139,1
592,592,0,ba,139,1
593,593,0,74,139,1
594,594,0,e8,139,1
595,595,0,d1,139,1
596,596,0,a2,139,1
597,597,0,44,162,1
598,598,0,89,162,1
599,599,0,13,162,1
600,600,0,26,162,1
601,601,0,4d,162,1
602,602,0,9b,162,1
603,603,0,36,162,1
604,604,0,6c,162,1
605,605,0,d9,108,1
606,606,0,b3,108,1
607,607,0,66,108,1
608,608,0,cd,108,1
609,609,0,9a,108,1
610,610,0,35,108,1
611,611,0,6a,108,1
612,612,0,d5,108,1
613,613,0,aa,213,1
614,614,0,54,213,1
615,615,0,a8,213,1
616,616,0,51,213,1
617,617,0,a2,213,1
618,618,0,45,213,1
619,619,0,8b,213,1
620,620,0,17,213,1
621,621,0,2e,23,1
622,622,0,5d,23,1
623,623,0,bb,23,1
624,624,0,76,23,1
625,625,0,ed,23,1
626,626,0,db,23,1
627,627,0,b6,23,1
628,628,0,6c,23,1
629,629,0,d9,108,1
630,630,0,b2,108,1
631,631,0,64,108,1
632,632,0,c8,108,1
633,633,0,91,108,1
634,634,0,22,108,1
635,635,0,45,108,1
636,636,0,8a,108,1
637,637,0,15,138,1
638,638,0,2a,138,1
639,639,0,55,138,1
640,640,0,aa,138,1
641,641,0,54,138,1
642,642,0,a8,138,1
643,643,0,51,138,1
644,644,0,a2,138,1
645,645,0,44,162,1
646,646,0,89,162,1
647,647,0,13,162,1
648,648,0,26,162,1
649,649,0,4c,162,1
650,650,0,99,162,1
651,651,0,32,162,1
652,652,0,64,162,1
653,653,0,c8,100,1
654,654,0,91,100,1
655,655,0,22,100,1
656,656,0,45,100,1
657,657,0,8a,100,1
658,658,0,15,100,1
659,659,0,2a,100,1
660,660,0,55,100,1
661,661,0,aa,85,1
662,662,0,54,85,1
663,663,0,a8,85,1
664,664,0,51,85,1
665,665,0,a2,85,1
666,666,0,44,85,1
667,667,0,89,85,1
668,668,0,13,85,1
669,669,0,26,19,1
670,670,0,4d,19,1
671,671,0,9b,19,1
672,672,0,36,19,1
673,673,0,6d,19,1
674,674,0,db,19,1
675,675,0,b7,19,1
676,676,0,6e,19,1
677,677,0,dd,110,1
678,678,0,ba,110,1
679,679,0,75,110,1
680,680,0,ea,110,1
681,681,0,d5,110,1
682,682,0,aa,110,1
683,683,0,55,110,1
684,684,0,aa,110,1
685,685,0,55,170,1
686,686,0,aa,170,1
687,687,0,55,170,1
688,688,0,ab,170,1
689,689,0,57,170,1
690,690,0,ae,170,1
691,691,0,5d,170,1
692,692,0,bb,170,1
693,693,0,76,187,1
694,694,0,ed,187,1
695,695,0,db,187,1
696,696,0,b7,187,1
697,697,0,6e,187,1
698,698,0,dd,187,1
699,699,0,ba,187,1
700,700,0,74,187,1
701,701,0,e8,116,1
702,702,0,d1,116,1
703,703,0,a2,116,1
704,704,0,45,116,1
705,705,0,8a,116,1
706,706,0,15,116,1
707,707,0,2a,116,1
708,708,0,55,116,1
709,709,0,ab,85,1
710,710,0,56,85,1
711,711,0,ac,85,1
712,712,0,59,85,1
713,713,0,b3,85,1
714,714,0,66,85,1
715,715,0,cd,85,1
716,716,0,9b,85,1
717,717,0,36,155,1
718,718,0,6c,155,1
719,719,0,d9,155,1
720,720,0,b2,155,1
721,721,0,64,155,1
722,722,0,c8,155,1
723,723,0,91,155,1
724,724,0,22,155,1
725,725,0,45,34,1
726,726,0,8b,34,1
727,727,0,17,34,1
728,728,0,2e,34,1
729,729,0,5d,34,1
730,730,0,ba,34,1
731,731,0,74,34,1
732,732,0,e8,34,1
733,733,0,d1,232,1
734,734,0,a2,232,1
735,735,0,44,232,1
736,736,0,89,232,1
737,737,0,12,232,1
738,738,0,24,232,1
739,739,0,48,232,1
740,740,0,91,232,1
741,741,0,22,145,1
742,742,0,45,145,1
743,743,0,8b,145,1
744,744,0,17,145,1
745,745,0,2e,145,1
746,746,0,5d,145,1
747,747,0,ba,145,1
748,748,0,75,145,1
749,749,0,ea,117,1
750,750,0,d5,117,1
751,751,0,aa,117,1
752,752,0,54,117,1
753,753,0,a9,117,1
754,754,0,53,117,1
755,755,0,a6,117,1
756,756,0,4d,117,1
757,757,0,9b,77,1
758,758,0,36,77,1
759,759,0,6c,77,1
760,760,0,d9,77,1
761,761,0,b3,77,1
762,762,0,66,77,1
763,763,0,cd,77,1
764,764,0,9b,77,1
765,765,0,37,155,1
766,766,0,6e,155,1
767,767,0,dd,155,1
768,768,0,ba,155,1
769,769,0,75,155,1
770,770,0,ea,155,1
771,771,0,d5,155,1
772,772,0,aa,155,1
773,773,0,55,170,1
774,774,0,ab,170,1
775,775,0,57,170,1
776,776,0,ae,170,1
777,777,0,5d,170,1
778,778,0,bb,170,1
779,779,0,76,170,1
780,780,0,ec,170,1
781,781,0,d9,236,1
782,782,0,b3,236,1
783,783,0,66,236,1
784,784,0,cd,236,1
785,785,0,9b,236,1
786,786,0,36,236,1
787,787,0,6c,236,1
788,788,0,d9,236,1
789,789,0,b2,217,1
790,790,0,65,217,1
791,791,0,ca,217,1
792,792,0,95,217,1
793,793,0,2a,217,1
794,794,0,55,217,1
795,795,0,ab,217,1
796,796,0,57,217,1
797,797,0,ae,87,1
798,798,0,5d,87,1
799,799,0,ba,87,1
800,800,0,74,87,1
801,801,0,e8,87,1
802,802,0,d1,87,1
803,803,0,a2,87,1
804,804,0,44,87,1
805,805,0,89,68,1
806,806,0,12,68,1
807,807,0,24,68,1
808,808,0,48,68,1
809,809,0,91,68,1
810,810,0,22,68,1
811,811,0,45,68,1
812,812,0,8a,68,1
813,813,0,15,138,1
814,814,0,2a,138,1
815,815,0,55,138,1
816,816,0,aa,138,1
817,817,0,55,138,1
818,818,0,aa,138,1
819,819,0,55,138,1
820,820,0,aa,138,1
821,821,0,54,170,1
822,822,0,a9,170,1
823,823,0,53,170,1
824,824,0,a6,170,1
825,825,0,4c,170,1
826,826,0,99,170,1
827,827,0,32,170,1
828,828,0,64,170,1
829,829,0,c9,100,1
830,830,0,93,100,1
831,831,0,26,100,1
832,832,0,4d,100,1
833,833,0,9a,100,1
834,834,0,35,100,1
835,835,0,6a,100,1
836,836,0,d5,100,1
837,837,0,aa,213,1
838,838,0,54,213,1
839,839,0,a8,213,1
840,840,0,51,213,1
841,841,0,a2,213,1
842,842,0,44,213,1
843,843,0,89,213,1
844,844,0,13,213,1
845,845,0,26,19,1
846,846,0,4d,19,1
847,847,0,9b,19,1
848,848,0,36,19,1
849,849,0,6c,19,1
850,850,0,d9,19,1
851,851,0,b3,19,1
852,852,0,66,19,1
853,853,0,cd,102,1
854,854,0,9a,102,1
855,855,0,34,102,1
856,856,0,68,102,1
857,857,0,d1,102,1
858,858,0,a2,102,1
859,859,0,45,102,1
860,860,0,8a,102,1
861,861,0,15,138,1
862,862,0,2a,138,1
863,863,0,55,138,1
864,864,0,ab,138,1
865,865,0,57,138,1
866,866,0,ae,138,1
867,867,0,5d,138,1
868,868,0,bb,138,1
869,869,0,76,187,1
870,870,0,ed,187,1
871,871,0,db,187,1
872,872,0,b6,187,1
873,873,0,6c,187,1
874,874,0,d9,187,1
875,875,0,b2,187,1
876,876,0,64,187,1
877,877,0,c8,100,1
878,878,0,91,100,1
879,879,0,22,100,1
880,880,0,45,100,1
881,881,0,8a,100,1
882,882,0,15,100,1
883,883,0,2a,100,1
884,884,0,55,100,1
885,885,0,aa,85,1
886,886,0,54,85,1
887,887,0,a8,85,1
888,888,0,51,85,1
889,889,0,a2,85,1
890,890,0,44,85,1
891,891,0,89,85,1
892,892,0,13,85,1
893,893,0,26,19,1
894,894,0,4c,19,1
895,895,0,99,19,1
896,896,0,32,19,1
897,897,0,64,19,1
898,898,0,c8,19,1
899,899,0,91,19,1
900,900,0,22,19,1
901,901,0,45,34,1
902,902,0,8a,34,1
903,903,0,15,34,1
904,904,0,2a,34,1
905,905,0,55,34,1
906,906,0,aa,34,1
907,907,0,54,34,1
908,908,0,a8,34,1
909,909,0,51,168,1
910,910,0,a2,168,1
911,911,0,44,168,1
912,912,0,89,168,1
913,913,0,13,168,1
914,914,0,26,168,1
915,915,0,4c,168,1
916,916,0,99,168,1
917,917,0,32,153,1
918,918,0,65,153,1
919,919,0,cb,153,1
920,920,0,97,153,1
921,921,0,2e,153,1
922,922,0,5d,153,1
923,923,0,ba,153,1
924,924,0,75,153,1
925,925,0,ea,117,1
926,926,0,d5,117,1
927,927,0,aa,117,1
928,928,0,54,117,1
929,929,0,a8,117,1
930,930,0,51,117,1
931,931,0,a2,117,1
932,932,0,45,117,1
933,933,0,8b,69,1
934,934,0,16,69,1
935,935,0,2c,69,1
936,936,0,59,69,1
937,937,0,b3,69,1
938,938,0,66,69,1
939,939,0,cd,69,1
940,940,0,9b,69,1
941,941,0,37,155,1
942,942,0,6e,155,1
943,943,0,dd,155,1
944,944,0,ba,155,1
945,945,0,74,155,1
946,946,0,e8,155,1
947,947,0,d1,155,1
948,948,0,a2,155,1
949,949,0,45,162,1
950,950,0,8b,162,1
951,951,0,17,162,1
952,952,0,2e,162,1
953,953,0,5d,162,1
954,954,0,bb,162,1
955,955,0,76,162,1
956,956,0,ec,162,1
957,957,0,d9,236,1
958,958,0,b2,236,1
959,959,0,64,236,1
960,960,0,c9,236,1
961,961,0,92,236,1
962,962,0,24,236,1
963,963,0,48,236,1
964,964,0,91,236,1
965,965,0,22,145,1
966,966,0,45,145,1
967,967,0,8a,145,1
968,968,0,15,145,1
969,969,0,2a,145,1
970,970,0,55,145,1
971,971,0,aa,145,1
972,972,0,55,145,1
973,973,0,aa,85,1
974,974,0,55,85,1
975,975,0,aa,85,1
976,976,0,54,85,1
977,977,0,a8,85,1
978,978,0,51,85,1
979,979,0,a2,85,1
980,980,0,44,85,1
981,981,0,89,68,1
982,982,0,12,68,1
983,983,0,24,68,1
984,984,0,49,68,1
985,985,0,93,68,1
986,986,0,26,68,1
987,987,0,4d,68,1
988,988,0,9b,68,1
989,989,0,37,155,1
990,990,0,6e,155,1
991,991,0,dd,155,1
992,992,0,ba,155,1
993,993,0,75,155,1
994,994,0,ea,155,1
995,995,0,d5,155,1
996,996,0,aa,155,1
997,997,0,54,170,1
998,998,0,a9,170,1
999,999,0,53,170,1
1000,1000,0,a6,170,1
1001,1001,0,4c,170,1
1002,1002,0,99,170,1
1003,1003,0,32,170,1
1004,1004,0,64,170,1
1005,1005,0,c9,100,1
1006,1006,0,93,100,1
1007,1007,0,26,100,1
1008,1008,0,4d,100,1
1009,1009,0,9b,100,1
1010,1010,0,37,100,1
1011,1011,0,6e,100,1
1012,1012,0,dd,100,1
1013,1013,0,ba,221,1
1014,1014,0,74,221,1
1015,1015,0,e8,221,1
1016,1016,0,d1,221,1
1017,1017,0,a2,221,1
1018,1018,0,45,221,1
